Freq.	V(n001)/V(n002)	I(Rl)
Step Information: X=2  (Run: 1/999)
1.99900000000000e+003	(3.50362572439747e+001dB,1.77568018456212e+002°)	(-7.89256431733529e+001dB,1.77568018456212e+002°)
2.00900000000000e+003	(3.50358052918502e+001dB,1.77515316549776e+002°)	(-7.89260951254773e+001dB,1.77515316549776e+002°)
Step Information: X=3  (Run: 2/999)
1.99900000000000e+003	(3.56277800779347e+001dB,-1.79957116372986e+002°)	(-7.79197817923329e+001dB,-1.79957116372986e+002°)
2.00900000000000e+003	(3.56276188743457e+001dB,1.79993218911799e+002°)	(-7.79199429959218e+001dB,1.79993218911799e+002°)
Step Information: X=4  (Run: 3/999)
1.99900000000000e+003	(3.63179543901965e+001dB,1.77932883385595e+002°)	(-7.75547207764863e+001dB,1.77932883385595e+002°)
2.00900000000000e+003	(3.63175324787937e+001dB,1.77879382010149e+002°)	(-7.75551426878892e+001dB,1.77879382010149e+002°)
Step Information: X=5  (Run: 4/999)
1.99900000000000e+003	(3.57920260138339e+001dB,1.78058568515541e+002°)	(-7.82804076739520e+001dB,1.78058568515541e+002°)
2.00900000000000e+003	(3.57916647105055e+001dB,1.78009378713595e+002°)	(-7.82807689772804e+001dB,1.78009378713595e+002°)
Step Information: X=6  (Run: 5/999)
1.99900000000000e+003	(3.62371324132940e+001dB,1.77798562497998e+002°)	(-7.74259149902529e+001dB,1.77798562497998e+002°)
2.00900000000000e+003	(3.62366445643204e+001dB,1.77740654120127e+002°)	(-7.74264028392264e+001dB,1.77740654120127e+002°)
Step Information: X=7  (Run: 6/999)
1.99900000000000e+003	(3.60844252949092e+001dB,1.77872982702327e+002°)	(-7.78010411053874e+001dB,1.77872982702327e+002°)
2.00900000000000e+003	(3.60839475746166e+001dB,1.77815121835006e+002°)	(-7.78015188256799e+001dB,1.77815121835006e+002°)
Step Information: X=8  (Run: 7/999)
1.99900000000000e+003	(3.73571035688998e+001dB,1.78987774830189e+002°)	(-7.69786424136662e+001dB,1.78987774830189e+002°)
2.00900000000000e+003	(3.73567742134415e+001dB,1.78931333878587e+002°)	(-7.69789717691245e+001dB,1.78931333878587e+002°)
Step Information: X=9  (Run: 8/999)
1.99900000000000e+003	(3.62293109755992e+001dB,1.77351775276577e+002°)	(-7.77226497553865e+001dB,1.77351775276577e+002°)
2.00900000000000e+003	(3.62288245160568e+001dB,1.77298168782764e+002°)	(-7.77231362149289e+001dB,1.77298168782764e+002°)
Step Information: X=10  (Run: 9/999)
1.99900000000000e+003	(3.65878989443386e+001dB,1.79343576999696e+002°)	(-7.72702190495591e+001dB,1.79343576999696e+002°)
2.00900000000000e+003	(3.65876277310770e+001dB,1.79288994508337e+002°)	(-7.72704902628207e+001dB,1.79288994508337e+002°)
Step Information: X=11  (Run: 10/999)
1.99900000000000e+003	(3.59448296496870e+001dB,1.78336054781002e+002°)	(-7.81701425790233e+001dB,1.78336054781002e+002°)
2.00900000000000e+003	(3.59444268939208e+001dB,1.78279951477408e+002°)	(-7.81705453347896e+001dB,1.78279951477408e+002°)
Step Information: X=12  (Run: 11/999)
1.99900000000000e+003	(3.42941899602563e+001dB,1.77750213494911e+002°)	(-7.95124334172638e+001dB,1.77750213494911e+002°)
2.00900000000000e+003	(3.42937100552811e+001dB,1.77693203967805e+002°)	(-7.95129133222390e+001dB,1.77693203967805e+002°)
Step Information: X=13  (Run: 12/999)
1.99900000000000e+003	(3.57422487087478e+001dB,1.79270445253285e+002°)	(-7.79527671557532e+001dB,1.79270445253285e+002°)
2.00900000000000e+003	(3.57420360676376e+001dB,1.79224255790624e+002°)	(-7.79529797968634e+001dB,1.79224255790624e+002°)
Step Information: X=14  (Run: 13/999)
1.99900000000000e+003	(3.61458865403263e+001dB,1.78942105649697e+002°)	(-7.80529483823801e+001dB,1.78942105649697e+002°)
2.00900000000000e+003	(3.61456392388633e+001dB,1.78895416812484e+002°)	(-7.80531956838430e+001dB,1.78895416812484e+002°)
Step Information: X=15  (Run: 14/999)
1.99900000000000e+003	(3.68488998705693e+001dB,1.77788428673422e+002°)	(-7.67801568485374e+001dB,1.77788428673422e+002°)
2.00900000000000e+003	(3.68484975196731e+001dB,1.77738018427492e+002°)	(-7.67805591994337e+001dB,1.77738018427492e+002°)
Step Information: X=16  (Run: 15/999)
1.99900000000000e+003	(3.68706412540340e+001dB,1.78012685241072e+002°)	(-7.69083296916303e+001dB,1.78012685241072e+002°)
2.00900000000000e+003	(3.68702187411025e+001dB,1.77958199849752e+002°)	(-7.69087522045619e+001dB,1.77958199849752e+002°)
Step Information: X=17  (Run: 16/999)
1.99900000000000e+003	(3.62528968679067e+001dB,1.78481698539487e+002°)	(-7.80589511738599e+001dB,1.78481698539487e+002°)
2.00900000000000e+003	(3.62525513873501e+001dB,1.78428657259679e+002°)	(-7.80592966544165e+001dB,1.78428657259679e+002°)
Step Information: X=18  (Run: 17/999)
1.99900000000000e+003	(3.69335469091780e+001dB,1.79766930142458e+002°)	(-7.67793637672418e+001dB,1.79766930142458e+002°)
2.00900000000000e+003	(3.69333646212753e+001dB,1.79718123882348e+002°)	(-7.67795460551445e+001dB,1.79718123882348e+002°)
Step Information: X=19  (Run: 18/999)
1.99900000000000e+003	(3.52497858203895e+001dB,1.77645100613584e+002°)	(-7.89297459961286e+001dB,1.77645100613584e+002°)
2.00900000000000e+003	(3.52493735880248e+001dB,1.77595234400643e+002°)	(-7.89301582284933e+001dB,1.77595234400643e+002°)
Step Information: X=20  (Run: 19/999)
1.99900000000000e+003	(3.62010201048402e+001dB,1.79017576232589e+002°)	(-7.80793905792397e+001dB,1.79017576232589e+002°)
2.00900000000000e+003	(3.62007061932686e+001dB,1.78962342660194e+002°)	(-7.80797044908114e+001dB,1.78962342660194e+002°)
Step Information: X=21  (Run: 20/999)
1.99900000000000e+003	(3.60636335216813e+001dB,1.78753525196805e+002°)	(-7.75375309775995e+001dB,1.78753525196805e+002°)
2.00900000000000e+003	(3.60632880359576e+001dB,1.78698241319298e+002°)	(-7.75378764633231e+001dB,1.78698241319298e+002°)
Step Information: X=22  (Run: 21/999)
1.99900000000000e+003	(3.65156794408421e+001dB,1.77885224798370e+002°)	(-7.71634355021831e+001dB,1.77885224798370e+002°)
2.00900000000000e+003	(3.65152642849960e+001dB,1.77832507011428e+002°)	(-7.71638506580291e+001dB,1.77832507011428e+002°)
Step Information: X=23  (Run: 22/999)
1.99900000000000e+003	(3.54932187039712e+001dB,1.79512687011429e+002°)	(-7.89083262351816e+001dB,1.79512687011429e+002°)
2.00900000000000e+003	(3.54930235337722e+001dB,1.79465424608117e+002°)	(-7.89085214053805e+001dB,1.79465424608117e+002°)
Step Information: X=24  (Run: 23/999)
1.99900000000000e+003	(3.78091929484608e+001dB,1.78615550293251e+002°)	(-7.64008264115517e+001dB,1.78615550293251e+002°)
2.00900000000000e+003	(3.78088071560176e+001dB,1.78557896295885e+002°)	(-7.64012122039949e+001dB,1.78557896295885e+002°)
Step Information: X=25  (Run: 24/999)
1.99900000000000e+003	(3.62931908007159e+001dB,1.77925900400730e+002°)	(-7.79671992159850e+001dB,1.77925900400730e+002°)
2.00900000000000e+003	(3.62927969800387e+001dB,1.77874786828329e+002°)	(-7.79675930366622e+001dB,1.77874786828329e+002°)
Step Information: X=26  (Run: 25/999)
1.99900000000000e+003	(3.53101941325809e+001dB,1.78123197728034e+002°)	(-7.83947313665679e+001dB,1.78123197728034e+002°)
2.00900000000000e+003	(3.53098274884955e+001dB,1.78072796790155e+002°)	(-7.83950980106533e+001dB,1.78072796790155e+002°)
Step Information: X=27  (Run: 26/999)
1.99900000000000e+003	(3.70361463649545e+001dB,1.78528004850012e+002°)	(-7.71076938758737e+001dB,1.78528004850012e+002°)
2.00900000000000e+003	(3.70357875027734e+001dB,1.78473952574912e+002°)	(-7.71080527380548e+001dB,1.78473952574912e+002°)
Step Information: X=28  (Run: 27/999)
1.99900000000000e+003	(3.70548574613203e+001dB,1.78817027064073e+002°)	(-7.73288928941839e+001dB,1.78817027064073e+002°)
2.00900000000000e+003	(3.70545593101175e+001dB,1.78765647182332e+002°)	(-7.73291910453868e+001dB,1.78765647182332e+002°)
Step Information: X=29  (Run: 28/999)
1.99900000000000e+003	(3.56180977447914e+001dB,1.79197517639199e+002°)	(-7.82096456906986e+001dB,1.79197517639199e+002°)
2.00900000000000e+003	(3.56177895448574e+001dB,1.79140844964469e+002°)	(-7.82099538906326e+001dB,1.79140844964469e+002°)
Step Information: X=30  (Run: 29/999)
1.99900000000000e+003	(3.62607659414434e+001dB,1.78392454382348e+002°)	(-7.77196811497717e+001dB,1.78392454382348e+002°)
2.00900000000000e+003	(3.62603595561448e+001dB,1.78335277052729e+002°)	(-7.77200875350703e+001dB,1.78335277052729e+002°)
Step Information: X=31  (Run: 30/999)
1.99900000000000e+003	(3.61065421268354e+001dB,1.78178621855076e+002°)	(-7.82501940046093e+001dB,1.78178621855076e+002°)
2.00900000000000e+003	(3.61060855821582e+001dB,1.78119398016159e+002°)	(-7.82506505492865e+001dB,1.78119398016159e+002°)
Step Information: X=32  (Run: 31/999)
1.99900000000000e+003	(3.45587003350957e+001dB,1.79017276847914e+002°)	(-7.92648070022947e+001dB,1.79017276847914e+002°)
2.00900000000000e+003	(3.45584452078959e+001dB,1.78968687339766e+002°)	(-7.92650621294946e+001dB,1.78968687339766e+002°)
Step Information: X=33  (Run: 32/999)
1.99900000000000e+003	(3.68537556325496e+001dB,1.78150695182608e+002°)	(-7.70200197305429e+001dB,1.78150695182608e+002°)
2.00900000000000e+003	(3.68533767604807e+001dB,1.78098614731060e+002°)	(-7.70203986026118e+001dB,1.78098614731060e+002°)
Step Information: X=34  (Run: 33/999)
1.99900000000000e+003	(3.64834094809742e+001dB,1.77804802908605e+002°)	(-7.76746990261788e+001dB,1.77804802908605e+002°)
2.00900000000000e+003	(3.64829202213831e+001dB,1.77746523252125e+002°)	(-7.76751882857699e+001dB,1.77746523252125e+002°)
Step Information: X=35  (Run: 34/999)
1.99900000000000e+003	(3.59077209945066e+001dB,1.78620811901848e+002°)	(-7.79466597682576e+001dB,1.78620811901848e+002°)
2.00900000000000e+003	(3.59074493676306e+001dB,1.78574920082853e+002°)	(-7.79469313951335e+001dB,1.78574920082853e+002°)
Step Information: X=36  (Run: 35/999)
1.99900000000000e+003	(3.61142273185795e+001dB,1.79946764712743e+002°)	(-7.77161053250262e+001dB,1.79946764712743e+002°)
2.00900000000000e+003	(3.61140622403483e+001dB,1.79897637241935e+002°)	(-7.77162704032573e+001dB,1.79897637241935e+002°)
Step Information: X=37  (Run: 36/999)
1.99900000000000e+003	(3.62073570770090e+001dB,1.78819444707194e+002°)	(-7.74413830742354e+001dB,1.78819444707194e+002°)
2.00900000000000e+003	(3.62070858795708e+001dB,1.78771569616062e+002°)	(-7.74416542716736e+001dB,1.78771569616062e+002°)
Step Information: X=38  (Run: 37/999)
1.99900000000000e+003	(3.57242842433300e+001dB,1.77966719802649e+002°)	(-7.83938452098205e+001dB,1.77966719802649e+002°)
2.00900000000000e+003	(3.57239162717629e+001dB,1.77917732019423e+002°)	(-7.83942131813876e+001dB,1.77917732019423e+002°)
Step Information: X=39  (Run: 38/999)
1.99900000000000e+003	(3.50670755237464e+001dB,1.79160206501999e+002°)	(-7.86957127642800e+001dB,1.79160206501999e+002°)
2.00900000000000e+003	(3.50668552815025e+001dB,1.79114132077776e+002°)	(-7.86959330065239e+001dB,1.79114132077776e+002°)
Step Information: X=40  (Run: 39/999)
1.99900000000000e+003	(3.66844753256463e+001dB,1.79345586576414e+002°)	(-7.69499615497863e+001dB,1.79345586576414e+002°)
2.00900000000000e+003	(3.66842348243507e+001dB,1.79294794857853e+002°)	(-7.69502020510819e+001dB,1.79294794857853e+002°)
Step Information: X=41  (Run: 40/999)
1.99900000000000e+003	(3.63472785189039e+001dB,1.78745130831331e+002°)	(-7.79365113857751e+001dB,1.78745130831331e+002°)
2.00900000000000e+003	(3.63469939660764e+001dB,1.78696066486786e+002°)	(-7.79367959386027e+001dB,1.78696066486786e+002°)
Step Information: X=42  (Run: 41/999)
1.99900000000000e+003	(3.50323940849921e+001dB,1.77845424522195e+002°)	(-7.88831926279334e+001dB,1.77845424522195e+002°)
2.00900000000000e+003	(3.50319118818748e+001dB,1.77787456264919e+002°)	(-7.88836748310506e+001dB,1.77787456264919e+002°)
Step Information: X=43  (Run: 42/999)
1.99900000000000e+003	(3.73197934163816e+001dB,1.79281940748743e+002°)	(-7.62675993039600e+001dB,1.79281940748743e+002°)
2.00900000000000e+003	(3.73195455294958e+001dB,1.79230525147740e+002°)	(-7.62678471908459e+001dB,1.79230525147740e+002°)
Step Information: X=44  (Run: 43/999)
1.99900000000000e+003	(3.56607060846018e+001dB,1.78751639782516e+002°)	(-7.82293680513799e+001dB,1.78751639782516e+002°)
2.00900000000000e+003	(3.56603595461065e+001dB,1.78696127252649e+002°)	(-7.82297145898752e+001dB,1.78696127252649e+002°)
Step Information: X=45  (Run: 44/999)
1.99900000000000e+003	(3.69384746113271e+001dB,1.79468022305061e+002°)	(-7.74193274618493e+001dB,1.79468022305061e+002°)
2.00900000000000e+003	(3.69382891650986e+001dB,1.79422428930394e+002°)	(-7.74195129080777e+001dB,1.79422428930394e+002°)
Step Information: X=46  (Run: 45/999)
1.99900000000000e+003	(3.61942324878920e+001dB,-1.79974955681823e+002°)	(-7.76829499165478e+001dB,-1.79974955681823e+002°)
2.00900000000000e+003	(3.61940685698026e+001dB,1.79974957104858e+002°)	(-7.76831138346372e+001dB,1.79974957104858e+002°)
Step Information: X=47  (Run: 46/999)
1.99900000000000e+003	(3.74061267514979e+001dB,1.79110510690656e+002°)	(-7.68322925904414e+001dB,1.79110510690656e+002°)
2.00900000000000e+003	(3.74058837407114e+001dB,1.79062100563902e+002°)	(-7.68325356012279e+001dB,1.79062100563902e+002°)
Step Information: X=48  (Run: 47/999)
1.99900000000000e+003	(3.48810350465881e+001dB,1.77143948287725e+002°)	(-7.92759567552639e+001dB,1.77143948287725e+002°)
2.00900000000000e+003	(3.48804740619101e+001dB,1.77086593139941e+002°)	(-7.92765177399420e+001dB,1.77086593139941e+002°)
Step Information: X=49  (Run: 48/999)
1.99900000000000e+003	(3.72139429155690e+001dB,1.79363269526395e+002°)	(-7.71248810679436e+001dB,1.79363269526395e+002°)
2.00900000000000e+003	(3.72137176080478e+001dB,1.79313799162927e+002°)	(-7.71251063754647e+001dB,1.79313799162927e+002°)
Step Information: X=50  (Run: 49/999)
1.99900000000000e+003	(3.68598808830278e+001dB,1.79787126592093e+002°)	(-7.70687540389927e+001dB,1.79787126592093e+002°)
2.00900000000000e+003	(3.68597016032343e+001dB,1.79737371861710e+002°)	(-7.70689333187862e+001dB,1.79737371861710e+002°)
Step Information: X=51  (Run: 50/999)
1.99900000000000e+003	(3.54318573001619e+001dB,1.78916619941644e+002°)	(-7.87625567040041e+001dB,1.78916619941644e+002°)
2.00900000000000e+003	(3.54315668535215e+001dB,1.78865348333426e+002°)	(-7.87628471506444e+001dB,1.78865348333426e+002°)
Step Information: X=52  (Run: 51/999)
1.99900000000000e+003	(3.60448029638323e+001dB,1.78771188908949e+002°)	(-7.80384813549112e+001dB,1.78771188908949e+002°)
2.00900000000000e+003	(3.60445535868150e+001dB,1.78726342637670e+002°)	(-7.80387307319285e+001dB,1.78726342637670e+002°)
Step Information: X=53  (Run: 52/999)
1.99900000000000e+003	(3.66668972269544e+001dB,1.78465716942293e+002°)	(-7.74539449568614e+001dB,1.78465716942293e+002°)
2.00900000000000e+003	(3.66665327488264e+001dB,1.78411326228646e+002°)	(-7.74543094349894e+001dB,1.78411326228646e+002°)
Step Information: X=54  (Run: 53/999)
1.99900000000000e+003	(3.63716003848318e+001dB,1.78202764467952e+002°)	(-7.75178309580076e+001dB,1.78202764467952e+002°)
2.00900000000000e+003	(3.63711482463184e+001dB,1.78143703082954e+002°)	(-7.75182830965210e+001dB,1.78143703082954e+002°)
Step Information: X=55  (Run: 54/999)
1.99900000000000e+003	(3.64361849076165e+001dB,1.78635369621182e+002°)	(-7.72390600641347e+001dB,1.78635369621182e+002°)
2.00900000000000e+003	(3.64358509048465e+001dB,1.78582725715993e+002°)	(-7.72393940669047e+001dB,1.78582725715993e+002°)
Step Information: X=56  (Run: 55/999)
1.99900000000000e+003	(3.53864504160566e+001dB,1.78050635632080e+002°)	(-7.83280181547197e+001dB,1.78050635632080e+002°)
2.00900000000000e+003	(3.53861145218626e+001dB,1.78003868937040e+002°)	(-7.83283540489137e+001dB,1.78003868937040e+002°)
Step Information: X=57  (Run: 56/999)
1.99900000000000e+003	(3.55928971586727e+001dB,1.79608526720466e+002°)	(-7.85657566640109e+001dB,1.79608526720466e+002°)
2.00900000000000e+003	(3.55926830823977e+001dB,1.79557440060982e+002°)	(-7.85659707402859e+001dB,1.79557440060982e+002°)
Step Information: X=58  (Run: 57/999)
1.99900000000000e+003	(3.60863194527030e+001dB,1.78384471645617e+002°)	(-7.78035136414248e+001dB,1.78384471645617e+002°)
2.00900000000000e+003	(3.60859832377204e+001dB,1.78334196591980e+002°)	(-7.78038498564074e+001dB,1.78334196591980e+002°)
Step Information: X=59  (Run: 58/999)
1.99900000000000e+003	(3.57846544676387e+001dB,1.78654290946072e+002°)	(-7.78756708708270e+001dB,1.78654290946072e+002°)
2.00900000000000e+003	(3.57842943975205e+001dB,1.78598602238012e+002°)	(-7.78760309409452e+001dB,1.78598602238012e+002°)
Step Information: X=60  (Run: 59/999)
1.99900000000000e+003	(3.51336602702383e+001dB,1.77797833897664e+002°)	(-7.88613258061855e+001dB,1.77797833897664e+002°)
2.00900000000000e+003	(3.51332354626328e+001dB,1.77745375399942e+002°)	(-7.88617506137909e+001dB,1.77745375399942e+002°)
Step Information: X=61  (Run: 60/999)
1.99900000000000e+003	(3.60130598218517e+001dB,-1.79941075332006e+002°)	(-7.81360330351373e+001dB,-1.79941075332006e+002°)
2.00900000000000e+003	(3.60129077894404e+001dB,-1.79989569396017e+002°)	(-7.81361850675486e+001dB,-1.79989569396017e+002°)
Step Information: X=62  (Run: 61/999)
1.99900000000000e+003	(3.69531277855327e+001dB,1.79946365604976e+002°)	(-7.70643998368077e+001dB,1.79946365604976e+002°)
2.00900000000000e+003	(3.69529621750617e+001dB,1.79896839037168e+002°)	(-7.70645654472787e+001dB,1.79896839037168e+002°)
Step Information: X=63  (Run: 62/999)
1.99900000000000e+003	(3.58338278238383e+001dB,1.79562058106034e+002°)	(-7.83114428994764e+001dB,1.79562058106034e+002°)
2.00900000000000e+003	(3.58336382618054e+001dB,1.79515054148738e+002°)	(-7.83116324615092e+001dB,1.79515054148738e+002°)
Step Information: X=64  (Run: 63/999)
1.99900000000000e+003	(3.60462934494076e+001dB,1.79418282767194e+002°)	(-7.77770249692489e+001dB,1.79418282767194e+002°)
2.00900000000000e+003	(3.60460381680582e+001dB,1.79364824807386e+002°)	(-7.77772802505984e+001dB,1.79364824807386e+002°)
Step Information: X=65  (Run: 64/999)
1.99900000000000e+003	(3.59623007050879e+001dB,1.78756860836764e+002°)	(-7.83930393524358e+001dB,1.78756860836764e+002°)
2.00900000000000e+003	(3.59620596365102e+001dB,1.78712860671900e+002°)	(-7.83932804210135e+001dB,1.78712860671900e+002°)
Step Information: X=66  (Run: 65/999)
1.99900000000000e+003	(3.64683756691431e+001dB,-1.79967142981375e+002°)	(-7.76082531063684e+001dB,-1.79967142981375e+002°)
2.00900000000000e+003	(3.64682091566610e+001dB,1.79982830572877e+002°)	(-7.76084196188505e+001dB,1.79982830572877e+002°)
Step Information: X=67  (Run: 66/999)
1.99900000000000e+003	(3.54737821615340e+001dB,1.77376653434638e+002°)	(-7.87694214979162e+001dB,1.77376653434638e+002°)
2.00900000000000e+003	(3.54733300355276e+001dB,1.77325766028481e+002°)	(-7.87698736239226e+001dB,1.77325766028481e+002°)
Step Information: X=68  (Run: 67/999)
1.99900000000000e+003	(3.65535125369941e+001dB,1.79419363782554e+002°)	(-7.76961689000569e+001dB,1.79419363782554e+002°)
2.00900000000000e+003	(3.65533116691573e+001dB,1.79372781142144e+002°)	(-7.76963697678938e+001dB,1.79372781142144e+002°)
Step Information: X=69  (Run: 68/999)
1.99900000000000e+003	(3.68136590554082e+001dB,1.77643248515451e+002°)	(-7.68264027267287e+001dB,1.77643248515451e+002°)
2.00900000000000e+003	(3.68131838154005e+001dB,1.77587887821253e+002°)	(-7.68268779667364e+001dB,1.77587887821253e+002°)
Step Information: X=70  (Run: 69/999)
1.99900000000000e+003	(3.57278634036330e+001dB,1.76804814884408e+002°)	(-7.85934956399177e+001dB,1.76804814884408e+002°)
2.00900000000000e+003	(3.57273211959040e+001dB,1.76752033614995e+002°)	(-7.85940378476468e+001dB,1.76752033614995e+002°)
Step Information: X=71  (Run: 70/999)
1.99900000000000e+003	(3.70698557724166e+001dB,1.78121007741460e+002°)	(-7.71089247883351e+001dB,1.78121007741460e+002°)
2.00900000000000e+003	(3.70694290784050e+001dB,1.78065106384540e+002°)	(-7.71093514823467e+001dB,1.78065106384540e+002°)
Step Information: X=72  (Run: 71/999)
1.99900000000000e+003	(3.63086844682801e+001dB,1.79247891335113e+002°)	(-7.77341688472074e+001dB,1.79247891335113e+002°)
2.00900000000000e+003	(3.63084637155007e+001dB,1.79200715725632e+002°)	(-7.77343895999869e+001dB,1.79200715725632e+002°)
Step Information: X=73  (Run: 72/999)
