time,V(vo),I(Rd)
Step Information: X=1  (Run: 1/1000),,
0.00E+00,4.58E+00,2.23E-03
1.97E-03,4.58E+00,2.23E-03
2.00E-03,4.58E+00,2.23E-03
2.00E-03,4.58E+00,2.23E-03
Step Information: X=2  (Run: 2/1000),,
0.00E+00,4.35E+00,2.33E-03
1.96E-03,4.35E+00,2.33E-03
2.00E-03,4.35E+00,2.33E-03
2.00E-03,4.35E+00,2.33E-03
Step Information: X=3  (Run: 3/1000),,
0.00E+00,4.71E+00,2.16E-03
1.96E-03,4.71E+00,2.16E-03
2.00E-03,4.71E+00,2.16E-03
2.00E-03,4.71E+00,2.16E-03
Step Information: X=4  (Run: 4/1000),,
0.00E+00,4.82E+00,2.11E-03
1.96E-03,4.82E+00,2.11E-03
2.00E-03,4.82E+00,2.11E-03
2.00E-03,4.82E+00,2.11E-03
Step Information: X=5  (Run: 5/1000),,
0.00E+00,5.38E+00,1.79E-03
1.96E-03,5.38E+00,1.79E-03
2.00E-03,5.38E+00,1.79E-03
2.00E-03,5.38E+00,1.79E-03
Step Information: X=6  (Run: 6/1000),,
0.00E+00,4.47E+00,2.27E-03
1.96E-03,4.47E+00,2.27E-03
2.00E-03,4.47E+00,2.27E-03
2.00E-03,4.47E+00,2.27E-03
Step Information: X=7  (Run: 7/1000),,
0.00E+00,5.18E+00,1.92E-03
1.96E-03,5.18E+00,1.92E-03
2.00E-03,5.18E+00,1.92E-03
2.00E-03,5.18E+00,1.92E-03
Step Information: X=8  (Run: 8/1000),,
0.00E+00,4.65E+00,2.17E-03
1.96E-03,4.65E+00,2.17E-03
2.00E-03,4.65E+00,2.17E-03
2.00E-03,4.65E+00,2.17E-03
Step Information: X=9  (Run: 9/1000),,
0.00E+00,4.46E+00,2.25E-03
1.96E-03,4.46E+00,2.25E-03
2.00E-03,4.46E+00,2.25E-03
2.00E-03,4.46E+00,2.25E-03
Step Information: X=10  (Run: 10/1000),,
0.00E+00,4.86E+00,2.09E-03
1.96E-03,4.86E+00,2.09E-03
2.00E-03,4.86E+00,2.09E-03
2.00E-03,4.86E+00,2.09E-03
Step Information: X=11  (Run: 11/1000),,
0.00E+00,4.45E+00,2.26E-03
1.96E-03,4.45E+00,2.26E-03
2.00E-03,4.45E+00,2.26E-03
2.00E-03,4.45E+00,2.26E-03
Step Information: X=12  (Run: 12/1000),,
0.00E+00,5.33E+00,1.84E-03
1.96E-03,5.33E+00,1.84E-03
2.00E-03,5.33E+00,1.84E-03
2.00E-03,5.33E+00,1.84E-03
Step Information: X=13  (Run: 13/1000),,
0.00E+00,5.32E+00,1.84E-03
1.96E-03,5.32E+00,1.84E-03
2.00E-03,5.32E+00,1.84E-03
2.00E-03,5.32E+00,1.84E-03
Step Information: X=14  (Run: 14/1000),,
0.00E+00,4.38E+00,2.29E-03
1.96E-03,4.38E+00,2.29E-03
2.00E-03,4.38E+00,2.29E-03
2.00E-03,4.38E+00,2.29E-03
Step Information: X=15  (Run: 15/1000),,
0.00E+00,4.37E+00,2.30E-03
1.96E-03,4.37E+00,2.30E-03
2.00E-03,4.37E+00,2.30E-03
2.00E-03,4.37E+00,2.30E-03
Step Information: X=16  (Run: 16/1000),,
0.00E+00,4.93E+00,2.04E-03
1.96E-03,4.93E+00,2.04E-03
2.00E-03,4.93E+00,2.04E-03
2.00E-03,4.93E+00,2.04E-03
Step Information: X=17  (Run: 17/1000),,
0.00E+00,4.42E+00,2.28E-03
1.96E-03,4.42E+00,2.28E-03
2.00E-03,4.42E+00,2.28E-03
2.00E-03,4.42E+00,2.28E-03
Step Information: X=18  (Run: 18/1000),,
0.00E+00,4.37E+00,2.32E-03
1.96E-03,4.37E+00,2.32E-03
2.00E-03,4.37E+00,2.32E-03
2.00E-03,4.37E+00,2.32E-03
Step Information: X=19  (Run: 19/1000),,
0.00E+00,4.85E+00,2.07E-03
1.96E-03,4.85E+00,2.07E-03
2.00E-03,4.85E+00,2.07E-03
2.00E-03,4.85E+00,2.07E-03
Step Information: X=20  (Run: 20/1000),,
0.00E+00,4.56E+00,2.21E-03
1.96E-03,4.56E+00,2.21E-03
2.00E-03,4.56E+00,2.21E-03
2.00E-03,4.56E+00,2.21E-03
Step Information: X=21  (Run: 21/1000),,
0.00E+00,4.59E+00,2.22E-03
1.96E-03,4.59E+00,2.22E-03
2.00E-03,4.59E+00,2.22E-03
2.00E-03,4.59E+00,2.22E-03
Step Information: X=22  (Run: 22/1000),,
0.00E+00,4.52E+00,2.25E-03
1.96E-03,4.52E+00,2.25E-03
2.00E-03,4.52E+00,2.25E-03
2.00E-03,4.52E+00,2.25E-03
Step Information: X=23  (Run: 23/1000),,
0.00E+00,4.84E+00,2.09E-03
1.96E-03,4.84E+00,2.09E-03
2.00E-03,4.84E+00,2.09E-03
2.00E-03,4.84E+00,2.09E-03
Step Information: X=24  (Run: 24/1000),,
0.00E+00,4.55E+00,2.24E-03
1.96E-03,4.55E+00,2.24E-03
2.00E-03,4.55E+00,2.24E-03
2.00E-03,4.55E+00,2.24E-03
Step Information: X=25  (Run: 25/1000),,
0.00E+00,4.42E+00,2.28E-03
1.96E-03,4.42E+00,2.28E-03
2.00E-03,4.42E+00,2.28E-03
2.00E-03,4.42E+00,2.28E-03
Step Information: X=26  (Run: 26/1000),,
0.00E+00,4.58E+00,2.20E-03
1.96E-03,4.58E+00,2.20E-03
2.00E-03,4.58E+00,2.20E-03
2.00E-03,4.58E+00,2.20E-03
Step Information: X=27  (Run: 27/1000),,
0.00E+00,4.48E+00,2.25E-03
1.96E-03,4.48E+00,2.25E-03
2.00E-03,4.48E+00,2.25E-03
2.00E-03,4.48E+00,2.25E-03
Step Information: X=28  (Run: 28/1000),,
0.00E+00,4.66E+00,2.19E-03
1.96E-03,4.66E+00,2.19E-03
2.00E-03,4.66E+00,2.19E-03
2.00E-03,4.66E+00,2.19E-03
Step Information: X=29  (Run: 29/1000),,
0.00E+00,4.46E+00,2.27E-03
1.96E-03,4.46E+00,2.27E-03
2.00E-03,4.46E+00,2.27E-03
2.00E-03,4.46E+00,2.27E-03
Step Information: X=30  (Run: 30/1000),,
0.00E+00,4.60E+00,2.21E-03
1.96E-03,4.60E+00,2.21E-03
2.00E-03,4.60E+00,2.21E-03
2.00E-03,4.60E+00,2.21E-03
Step Information: X=31  (Run: 31/1000),,
0.00E+00,4.52E+00,2.26E-03
1.96E-03,4.52E+00,2.26E-03
2.00E-03,4.52E+00,2.26E-03
2.00E-03,4.52E+00,2.26E-03
Step Information: X=32  (Run: 32/1000),,
0.00E+00,5.02E+00,1.97E-03
1.96E-03,5.02E+00,1.97E-03
2.00E-03,5.02E+00,1.97E-03
2.00E-03,5.02E+00,1.97E-03
Step Information: X=33  (Run: 33/1000),,
0.00E+00,4.35E+00,2.32E-03
1.96E-03,4.35E+00,2.32E-03
2.00E-03,4.35E+00,2.32E-03
2.00E-03,4.35E+00,2.32E-03
Step Information: X=34  (Run: 34/1000),,
0.00E+00,4.48E+00,2.27E-03
1.96E-03,4.48E+00,2.27E-03
2.00E-03,4.48E+00,2.27E-03
2.00E-03,4.48E+00,2.27E-03
Step Information: X=35  (Run: 35/1000),,
0.00E+00,4.98E+00,2.02E-03
1.96E-03,4.98E+00,2.02E-03
2.00E-03,4.98E+00,2.02E-03
2.00E-03,4.98E+00,2.02E-03
Step Information: X=36  (Run: 36/1000),,
0.00E+00,4.40E+00,2.29E-03
1.96E-03,4.40E+00,2.29E-03
2.00E-03,4.40E+00,2.29E-03
2.00E-03,4.40E+00,2.29E-03
Step Information: X=37  (Run: 37/1000),,
0.00E+00,4.38E+00,2.32E-03
1.96E-03,4.38E+00,2.32E-03
2.00E-03,4.38E+00,2.32E-03
2.00E-03,4.38E+00,2.32E-03
Step Information: X=38  (Run: 38/1000),,
0.00E+00,5.36E+00,1.81E-03
1.96E-03,5.36E+00,1.81E-03
2.00E-03,5.36E+00,1.81E-03
2.00E-03,5.36E+00,1.81E-03
Step Information: X=39  (Run: 39/1000),,
0.00E+00,4.50E+00,2.27E-03
1.96E-03,4.50E+00,2.27E-03
2.00E-03,4.50E+00,2.27E-03
2.00E-03,4.50E+00,2.27E-03
Step Information: X=40  (Run: 40/1000),,
0.00E+00,4.75E+00,2.14E-03
1.96E-03,4.75E+00,2.14E-03
2.00E-03,4.75E+00,2.14E-03
2.00E-03,4.75E+00,2.14E-03
Step Information: X=41  (Run: 41/1000),,
0.00E+00,4.40E+00,2.30E-03
1.96E-03,4.40E+00,2.30E-03
2.00E-03,4.40E+00,2.30E-03
2.00E-03,4.40E+00,2.30E-03
Step Information: X=42  (Run: 42/1000),,
0.00E+00,4.32E+00,2.36E-03
1.96E-03,4.32E+00,2.36E-03
2.00E-03,4.32E+00,2.36E-03
2.00E-03,4.32E+00,2.36E-03
Step Information: X=43  (Run: 43/1000),,
0.00E+00,4.62E+00,2.20E-03
1.96E-03,4.62E+00,2.20E-03
2.00E-03,4.62E+00,2.20E-03
2.00E-03,4.62E+00,2.20E-03
Step Information: X=44  (Run: 44/1000),,
0.00E+00,4.40E+00,2.28E-03
1.96E-03,4.40E+00,2.28E-03
2.00E-03,4.40E+00,2.28E-03
2.00E-03,4.40E+00,2.28E-03
Step Information: X=45  (Run: 45/1000),,
0.00E+00,4.58E+00,2.19E-03
1.96E-03,4.58E+00,2.19E-03
2.00E-03,4.58E+00,2.19E-03
2.00E-03,4.58E+00,2.19E-03
Step Information: X=46  (Run: 46/1000),,
0.00E+00,4.47E+00,2.25E-03
1.96E-03,4.47E+00,2.25E-03
2.00E-03,4.47E+00,2.25E-03
2.00E-03,4.47E+00,2.25E-03
Step Information: X=47  (Run: 47/1000),,
0.00E+00,4.35E+00,2.33E-03
1.96E-03,4.35E+00,2.33E-03
2.00E-03,4.35E+00,2.33E-03
2.00E-03,4.35E+00,2.33E-03
Step Information: X=48  (Run: 48/1000),,
0.00E+00,4.56E+00,2.21E-03
1.96E-03,4.56E+00,2.21E-03
2.00E-03,4.56E+00,2.21E-03
2.00E-03,4.56E+00,2.21E-03
Step Information: X=49  (Run: 49/1000),,
0.00E+00,4.81E+00,2.11E-03
1.96E-03,4.81E+00,2.11E-03
2.00E-03,4.81E+00,2.11E-03
2.00E-03,4.81E+00,2.11E-03
Step Information: X=50  (Run: 50/1000),,
0.00E+00,4.64E+00,2.20E-03
1.96E-03,4.64E+00,2.20E-03
2.00E-03,4.64E+00,2.20E-03
2.00E-03,4.64E+00,2.20E-03
Step Information: X=51  (Run: 51/1000),,
0.00E+00,4.37E+00,2.32E-03
1.96E-03,4.37E+00,2.32E-03
2.00E-03,4.37E+00,2.32E-03
2.00E-03,4.37E+00,2.32E-03
Step Information: X=52  (Run: 52/1000),,
0.00E+00,4.43E+00,2.28E-03
1.96E-03,4.43E+00,2.28E-03
2.00E-03,4.43E+00,2.28E-03
2.00E-03,4.43E+00,2.28E-03
Step Information: X=53  (Run: 53/1000),,
0.00E+00,4.33E+00,2.31E-03
1.96E-03,4.33E+00,2.31E-03
2.00E-03,4.33E+00,2.31E-03
2.00E-03,4.33E+00,2.31E-03
Step Information: X=54  (Run: 54/1000),,
0.00E+00,4.74E+00,2.11E-03
1.96E-03,4.74E+00,2.11E-03
2.00E-03,4.74E+00,2.11E-03
2.00E-03,4.74E+00,2.11E-03
Step Information: X=55  (Run: 55/1000),,
0.00E+00,4.92E+00,2.06E-03
1.96E-03,4.92E+00,2.06E-03
2.00E-03,4.92E+00,2.06E-03
2.00E-03,4.92E+00,2.06E-03
Step Information: X=56  (Run: 56/1000),,
0.00E+00,4.40E+00,2.31E-03
1.96E-03,4.40E+00,2.31E-03
2.00E-03,4.40E+00,2.31E-03
2.00E-03,4.40E+00,2.31E-03
Step Information: X=57  (Run: 57/1000),,
0.00E+00,4.51E+00,2.24E-03
1.96E-03,4.51E+00,2.24E-03
2.00E-03,4.51E+00,2.24E-03
2.00E-03,4.51E+00,2.24E-03
Step Information: X=58  (Run: 58/1000),,
0.00E+00,4.64E+00,2.18E-03
1.96E-03,4.64E+00,2.18E-03
2.00E-03,4.64E+00,2.18E-03
2.00E-03,4.64E+00,2.18E-03
Step Information: X=59  (Run: 59/1000),,
0.00E+00,4.66E+00,2.15E-03
1.96E-03,4.66E+00,2.15E-03
2.00E-03,4.66E+00,2.15E-03
2.00E-03,4.66E+00,2.15E-03
Step Information: X=60  (Run: 60/1000),,
0.00E+00,4.49E+00,2.24E-03
1.96E-03,4.49E+00,2.24E-03
2.00E-03,4.49E+00,2.24E-03
2.00E-03,4.49E+00,2.24E-03
Step Information: X=61  (Run: 61/1000),,
0.00E+00,4.57E+00,2.21E-03
1.96E-03,4.57E+00,2.21E-03
2.00E-03,4.57E+00,2.21E-03
2.00E-03,4.57E+00,2.21E-03
Step Information: X=62  (Run: 62/1000),,
0.00E+00,4.61E+00,2.20E-03
1.96E-03,4.61E+00,2.20E-03
2.00E-03,4.61E+00,2.20E-03
2.00E-03,4.61E+00,2.20E-03
Step Information: X=63  (Run: 63/1000),,
0.00E+00,4.43E+00,2.27E-03
1.96E-03,4.43E+00,2.27E-03
2.00E-03,4.43E+00,2.27E-03
2.00E-03,4.43E+00,2.27E-03
Step Information: X=64  (Run: 64/1000),,
0.00E+00,4.56E+00,2.22E-03
1.96E-03,4.56E+00,2.22E-03
2.00E-03,4.56E+00,2.22E-03
2.00E-03,4.56E+00,2.22E-03
Step Information: X=65  (Run: 65/1000),,
0.00E+00,5.40E+00,1.79E-03
1.96E-03,5.40E+00,1.79E-03
2.00E-03,5.40E+00,1.79E-03
2.00E-03,5.40E+00,1.79E-03
Step Information: X=66  (Run: 66/1000),,
0.00E+00,4.46E+00,2.26E-03
1.96E-03,4.46E+00,2.26E-03
2.00E-03,4.46E+00,2.26E-03
2.00E-03,4.46E+00,2.26E-03
Step Information: X=67  (Run: 67/1000),,
0.00E+00,4.50E+00,2.24E-03
1.96E-03,4.50E+00,2.24E-03
2.00E-03,4.50E+00,2.24E-03
2.00E-03,4.50E+00,2.24E-03
Step Information: X=68  (Run: 68/1000),,
0.00E+00,4.62E+00,2.19E-03
1.96E-03,4.62E+00,2.19E-03
2.00E-03,4.62E+00,2.19E-03
2.00E-03,4.62E+00,2.19E-03
Step Information: X=69  (Run: 69/1000),,
0.00E+00,5.29E+00,1.87E-03
1.96E-03,5.29E+00,1.87E-03
2.00E-03,5.29E+00,1.87E-03
2.00E-03,5.29E+00,1.87E-03
Step Information: X=70  (Run: 70/1000),,
0.00E+00,4.26E+00,2.38E-03
1.96E-03,4.26E+00,2.38E-03
2.00E-03,4.26E+00,2.38E-03
2.00E-03,4.26E+00,2.38E-03
Step Information: X=71  (Run: 71/1000),,
0.00E+00,5.34E+00,1.81E-03
1.96E-03,5.34E+00,1.81E-03
2.00E-03,5.34E+00,1.81E-03
2.00E-03,5.34E+00,1.81E-03
Step Information: X=72  (Run: 72/1000),,
0.00E+00,5.12E+00,1.95E-03
1.96E-03,5.12E+00,1.95E-03
2.00E-03,5.12E+00,1.95E-03
2.00E-03,5.12E+00,1.95E-03
Step Information: X=73  (Run: 73/1000),,
0.00E+00,4.65E+00,2.19E-03
1.96E-03,4.65E+00,2.19E-03
2.00E-03,4.65E+00,2.19E-03
2.00E-03,4.65E+00,2.19E-03
Step Information: X=74  (Run: 74/1000),,
0.00E+00,4.44E+00,2.27E-03
1.96E-03,4.44E+00,2.27E-03
2.00E-03,4.44E+00,2.27E-03
2.00E-03,4.44E+00,2.27E-03
Step Information: X=75  (Run: 75/1000),,
0.00E+00,4.66E+00,2.16E-03
1.96E-03,4.66E+00,2.16E-03
2.00E-03,4.66E+00,2.16E-03
2.00E-03,4.66E+00,2.16E-03
Step Information: X=76  (Run: 76/1000),,
0.00E+00,4.45E+00,2.29E-03
1.96E-03,4.45E+00,2.29E-03
2.00E-03,4.45E+00,2.29E-03
2.00E-03,4.45E+00,2.29E-03
Step Information: X=77  (Run: 77/1000),,
0.00E+00,4.59E+00,2.20E-03
1.96E-03,4.59E+00,2.20E-03
2.00E-03,4.59E+00,2.20E-03
2.00E-03,4.59E+00,2.20E-03
Step Information: X=78  (Run: 78/1000),,
0.00E+00,4.48E+00,2.28E-03
1.96E-03,4.48E+00,2.28E-03
2.00E-03,4.48E+00,2.28E-03
2.00E-03,4.48E+00,2.28E-03
Step Information: X=79  (Run: 79/1000),,
0.00E+00,4.59E+00,2.19E-03
1.96E-03,4.59E+00,2.19E-03
2.00E-03,4.59E+00,2.19E-03
2.00E-03,4.59E+00,2.19E-03
Step Information: X=80  (Run: 80/1000),,
0.00E+00,4.58E+00,2.19E-03
1.96E-03,4.58E+00,2.19E-03
2.00E-03,4.58E+00,2.19E-03
2.00E-03,4.58E+00,2.19E-03
Step Information: X=81  (Run: 81/1000),,
0.00E+00,4.58E+00,2.21E-03
1.96E-03,4.58E+00,2.21E-03
2.00E-03,4.58E+00,2.21E-03
2.00E-03,4.58E+00,2.21E-03
Step Information: X=82  (Run: 82/1000),,
0.00E+00,4.75E+00,2.13E-03
1.96E-03,4.75E+00,2.13E-03
2.00E-03,4.75E+00,2.13E-03
2.00E-03,4.75E+00,2.13E-03
Step Information: X=83  (Run: 83/1000),,
0.00E+00,5.08E+00,1.97E-03
1.96E-03,5.08E+00,1.97E-03
2.00E-03,5.08E+00,1.97E-03
2.00E-03,5.08E+00,1.97E-03
Step Information: X=84  (Run: 84/1000),,
0.00E+00,4.51E+00,2.27E-03
1.96E-03,4.51E+00,2.27E-03
2.00E-03,4.51E+00,2.27E-03
2.00E-03,4.51E+00,2.27E-03
Step Information: X=85  (Run: 85/1000),,
0.00E+00,4.44E+00,2.26E-03
1.96E-03,4.44E+00,2.26E-03
2.00E-03,4.44E+00,2.26E-03
2.00E-03,4.44E+00,2.26E-03
Step Information: X=86  (Run: 86/1000),,
0.00E+00,4.37E+00,2.32E-03
1.96E-03,4.37E+00,2.32E-03
2.00E-03,4.37E+00,2.32E-03
2.00E-03,4.37E+00,2.32E-03
Step Information: X=87  (Run: 87/1000),,
0.00E+00,4.36E+00,2.32E-03
1.96E-03,4.36E+00,2.32E-03
2.00E-03,4.36E+00,2.32E-03
2.00E-03,4.36E+00,2.32E-03
Step Information: X=88  (Run: 88/1000),,
0.00E+00,4.18E+00,2.39E-03
1.96E-03,4.18E+00,2.39E-03
2.00E-03,4.18E+00,2.39E-03
2.00E-03,4.18E+00,2.39E-03
Step Information: X=89  (Run: 89/1000),,
0.00E+00,4.74E+00,2.12E-03
1.96E-03,4.74E+00,2.12E-03
2.00E-03,4.74E+00,2.12E-03
2.00E-03,4.74E+00,2.12E-03
Step Information: X=90  (Run: 90/1000),,
0.00E+00,4.35E+00,2.33E-03
1.96E-03,4.35E+00,2.33E-03
2.00E-03,4.35E+00,2.33E-03
2.00E-03,4.35E+00,2.33E-03
Step Information: X=91  (Run: 91/1000),,
0.00E+00,4.30E+00,2.34E-03
1.96E-03,4.30E+00,2.34E-03
2.00E-03,4.30E+00,2.34E-03
2.00E-03,4.30E+00,2.34E-03
Step Information: X=92  (Run: 92/1000),,
0.00E+00,4.34E+00,2.32E-03
1.96E-03,4.34E+00,2.32E-03
2.00E-03,4.34E+00,2.32E-03
2.00E-03,4.34E+00,2.32E-03
Step Information: X=93  (Run: 93/1000),,
0.00E+00,4.54E+00,2.22E-03
1.96E-03,4.54E+00,2.22E-03
2.00E-03,4.54E+00,2.22E-03
2.00E-03,4.54E+00,2.22E-03
Step Information: X=94  (Run: 94/1000),,
0.00E+00,5.09E+00,1.95E-03
1.96E-03,5.09E+00,1.95E-03
2.00E-03,5.09E+00,1.95E-03
2.00E-03,5.09E+00,1.95E-03
Step Information: X=95  (Run: 95/1000),,
0.00E+00,4.59E+00,2.21E-03
1.96E-03,4.59E+00,2.21E-03
2.00E-03,4.59E+00,2.21E-03
2.00E-03,4.59E+00,2.21E-03
Step Information: X=96  (Run: 96/1000),,
0.00E+00,4.76E+00,2.10E-03
1.96E-03,4.76E+00,2.10E-03
2.00E-03,4.76E+00,2.10E-03
2.00E-03,4.76E+00,2.10E-03
Step Information: X=97  (Run: 97/1000),,
0.00E+00,4.28E+00,2.37E-03
1.96E-03,4.28E+00,2.37E-03
2.00E-03,4.28E+00,2.37E-03
2.00E-03,4.28E+00,2.37E-03
Step Information: X=98  (Run: 98/1000),,
0.00E+00,4.20E+00,2.40E-03
1.96E-03,4.20E+00,2.40E-03
2.00E-03,4.20E+00,2.40E-03
2.00E-03,4.20E+00,2.40E-03
Step Information: X=99  (Run: 99/1000),,
0.00E+00,5.51E+00,1.74E-03
1.96E-03,5.51E+00,1.74E-03
2.00E-03,5.51E+00,1.74E-03
2.00E-03,5.51E+00,1.74E-03
Step Information: X=100  (Run: 100/1000),,
0.00E+00,4.23E+00,2.37E-03
1.96E-03,4.23E+00,2.37E-03
2.00E-03,4.23E+00,2.37E-03
2.00E-03,4.23E+00,2.37E-03
Step Information: X=101  (Run: 101/1000),,
0.00E+00,4.89E+00,2.07E-03
1.96E-03,4.89E+00,2.07E-03
2.00E-03,4.89E+00,2.07E-03
2.00E-03,4.89E+00,2.07E-03
Step Information: X=102  (Run: 102/1000),,
0.00E+00,4.34E+00,2.33E-03
1.96E-03,4.34E+00,2.33E-03
2.00E-03,4.34E+00,2.33E-03
2.00E-03,4.34E+00,2.33E-03
Step Information: X=103  (Run: 103/1000),,
0.00E+00,4.28E+00,2.35E-03
1.96E-03,4.28E+00,2.35E-03
2.00E-03,4.28E+00,2.35E-03
2.00E-03,4.28E+00,2.35E-03
Step Information: X=104  (Run: 104/1000),,
0.00E+00,4.49E+00,2.25E-03
1.96E-03,4.49E+00,2.25E-03
2.00E-03,4.49E+00,2.25E-03
2.00E-03,4.49E+00,2.25E-03
Step Information: X=105  (Run: 105/1000),,
0.00E+00,4.67E+00,2.15E-03
1.96E-03,4.67E+00,2.15E-03
2.00E-03,4.67E+00,2.15E-03
2.00E-03,4.67E+00,2.15E-03
Step Information: X=106  (Run: 106/1000),,
0.00E+00,4.86E+00,2.07E-03
1.96E-03,4.86E+00,2.07E-03
2.00E-03,4.86E+00,2.07E-03
2.00E-03,4.86E+00,2.07E-03
Step Information: X=107  (Run: 107/1000),,
0.00E+00,4.77E+00,2.13E-03
1.96E-03,4.77E+00,2.13E-03
2.00E-03,4.77E+00,2.13E-03
2.00E-03,4.77E+00,2.13E-03
Step Information: X=108  (Run: 108/1000),,
0.00E+00,4.48E+00,2.28E-03
1.96E-03,4.48E+00,2.28E-03
2.00E-03,4.48E+00,2.28E-03
2.00E-03,4.48E+00,2.28E-03
Step Information: X=109  (Run: 109/1000),,
0.00E+00,4.53E+00,2.24E-03
1.96E-03,4.53E+00,2.24E-03
2.00E-03,4.53E+00,2.24E-03
2.00E-03,4.53E+00,2.24E-03
Step Information: X=110  (Run: 110/1000),,
0.00E+00,4.34E+00,2.34E-03
1.96E-03,4.34E+00,2.34E-03
2.00E-03,4.34E+00,2.34E-03
2.00E-03,4.34E+00,2.34E-03
Step Information: X=111  (Run: 111/1000),,
0.00E+00,4.51E+00,2.26E-03
1.96E-03,4.51E+00,2.26E-03
2.00E-03,4.51E+00,2.26E-03
2.00E-03,4.51E+00,2.26E-03
Step Information: X=112  (Run: 112/1000),,
0.00E+00,4.50E+00,2.24E-03
1.96E-03,4.50E+00,2.24E-03
2.00E-03,4.50E+00,2.24E-03
2.00E-03,4.50E+00,2.24E-03
Step Information: X=113  (Run: 113/1000),,
0.00E+00,4.57E+00,2.20E-03
1.96E-03,4.57E+00,2.20E-03
2.00E-03,4.57E+00,2.20E-03
2.00E-03,4.57E+00,2.20E-03
Step Information: X=114  (Run: 114/1000),,
0.00E+00,4.55E+00,2.23E-03
1.96E-03,4.55E+00,2.23E-03
2.00E-03,4.55E+00,2.23E-03
2.00E-03,4.55E+00,2.23E-03
Step Information: X=115  (Run: 115/1000),,
0.00E+00,4.43E+00,2.29E-03
1.96E-03,4.43E+00,2.29E-03
2.00E-03,4.43E+00,2.29E-03
2.00E-03,4.43E+00,2.29E-03
Step Information: X=116  (Run: 116/1000),,
0.00E+00,4.38E+00,2.33E-03
1.96E-03,4.38E+00,2.33E-03
2.00E-03,4.38E+00,2.33E-03
2.00E-03,4.38E+00,2.33E-03
Step Information: X=117  (Run: 117/1000),,
0.00E+00,4.88E+00,2.07E-03
1.96E-03,4.88E+00,2.07E-03
2.00E-03,4.88E+00,2.07E-03
2.00E-03,4.88E+00,2.07E-03
Step Information: X=118  (Run: 118/1000),,
0.00E+00,5.06E+00,1.97E-03
1.96E-03,5.06E+00,1.97E-03
2.00E-03,5.06E+00,1.97E-03
2.00E-03,5.06E+00,1.97E-03
Step Information: X=119  (Run: 119/1000),,
0.00E+00,4.69E+00,2.18E-03
1.96E-03,4.69E+00,2.18E-03
2.00E-03,4.69E+00,2.18E-03
2.00E-03,4.69E+00,2.18E-03
Step Information: X=120  (Run: 120/1000),,
0.00E+00,4.33E+00,2.32E-03
1.96E-03,4.33E+00,2.32E-03
2.00E-03,4.33E+00,2.32E-03
2.00E-03,4.33E+00,2.32E-03
Step Information: X=121  (Run: 121/1000),,
0.00E+00,4.35E+00,2.31E-03
1.96E-03,4.35E+00,2.31E-03
2.00E-03,4.35E+00,2.31E-03
2.00E-03,4.35E+00,2.31E-03
Step Information: X=122  (Run: 122/1000),,
0.00E+00,4.21E+00,2.39E-03
1.96E-03,4.21E+00,2.39E-03
2.00E-03,4.21E+00,2.39E-03
2.00E-03,4.21E+00,2.39E-03
Step Information: X=123  (Run: 123/1000),,
0.00E+00,4.46E+00,2.27E-03
1.96E-03,4.46E+00,2.27E-03
2.00E-03,4.46E+00,2.27E-03
2.00E-03,4.46E+00,2.27E-03
Step Information: X=124  (Run: 124/1000),,
0.00E+00,4.31E+00,2.34E-03
1.96E-03,4.31E+00,2.34E-03
2.00E-03,4.31E+00,2.34E-03
2.00E-03,4.31E+00,2.34E-03
Step Information: X=125  (Run: 125/1000),,
0.00E+00,4.78E+00,2.12E-03
1.96E-03,4.78E+00,2.12E-03
2.00E-03,4.78E+00,2.12E-03
2.00E-03,4.78E+00,2.12E-03
Step Information: X=126  (Run: 126/1000),,
0.00E+00,4.58E+00,2.22E-03
1.96E-03,4.58E+00,2.22E-03
2.00E-03,4.58E+00,2.22E-03
2.00E-03,4.58E+00,2.22E-03
Step Information: X=127  (Run: 127/1000),,
0.00E+00,4.38E+00,2.30E-03
1.96E-03,4.38E+00,2.30E-03
2.00E-03,4.38E+00,2.30E-03
2.00E-03,4.38E+00,2.30E-03
Step Information: X=128  (Run: 128/1000),,
0.00E+00,4.35E+00,2.31E-03
1.96E-03,4.35E+00,2.31E-03
2.00E-03,4.35E+00,2.31E-03
2.00E-03,4.35E+00,2.31E-03
Step Information: X=129  (Run: 129/1000),,
0.00E+00,5.26E+00,1.86E-03
1.96E-03,5.26E+00,1.86E-03
2.00E-03,5.26E+00,1.86E-03
2.00E-03,5.26E+00,1.86E-03
Step Information: X=130  (Run: 130/1000),,
0.00E+00,4.54E+00,2.23E-03
1.96E-03,4.54E+00,2.23E-03
2.00E-03,4.54E+00,2.23E-03
2.00E-03,4.54E+00,2.23E-03
Step Information: X=131  (Run: 131/1000),,
0.00E+00,4.51E+00,2.23E-03
1.96E-03,4.51E+00,2.23E-03
2.00E-03,4.51E+00,2.23E-03
2.00E-03,4.51E+00,2.23E-03
Step Information: X=132  (Run: 132/1000),,
0.00E+00,5.07E+00,1.95E-03
1.96E-03,5.07E+00,1.95E-03
2.00E-03,5.07E+00,1.95E-03
2.00E-03,5.07E+00,1.95E-03
Step Information: X=133  (Run: 133/1000),,
0.00E+00,4.43E+00,2.27E-03
1.96E-03,4.43E+00,2.27E-03
2.00E-03,4.43E+00,2.27E-03
2.00E-03,4.43E+00,2.27E-03
Step Information: X=134  (Run: 134/1000),,
0.00E+00,4.67E+00,2.15E-03
1.96E-03,4.67E+00,2.15E-03
