time	V(vo)	I(Rd)
Step Information: X=1  (Run: 1/1000)
0.000000000000000e+000	4.581668e+000	2.231425e-003
1.965450624984442e-003	4.581667e+000	2.231425e-003
1.998653749984438e-003	4.581667e+000	2.231425e-003
2.000000000000000e-003	4.581667e+000	2.231425e-003
Step Information: X=2  (Run: 2/1000)
0.000000000000000e+000	4.350234e+000	2.325819e-003
1.963497499984442e-003	4.350234e+000	2.325819e-003
1.998653749984438e-003	4.350234e+000	2.325819e-003
2.000000000000000e-003	4.350234e+000	2.325819e-003
Step Information: X=3  (Run: 3/1000)
0.000000000000000e+000	4.706174e+000	2.160998e-003
1.963497499984442e-003	4.706174e+000	2.160998e-003
1.998653749984438e-003	4.706174e+000	2.160998e-003
2.000000000000000e-003	4.706174e+000	2.160998e-003
Step Information: X=4  (Run: 4/1000)
0.000000000000000e+000	4.822028e+000	2.109448e-003
1.963497499984442e-003	4.822028e+000	2.109448e-003
1.998653749984438e-003	4.822028e+000	2.109448e-003
2.000000000000000e-003	4.822028e+000	2.109448e-003
Step Information: X=5  (Run: 5/1000)
0.000000000000000e+000	5.381738e+000	1.791626e-003
1.963497499984442e-003	5.381738e+000	1.791626e-003
1.998653749984438e-003	5.381738e+000	1.791626e-003
2.000000000000000e-003	5.381738e+000	1.791626e-003
Step Information: X=6  (Run: 6/1000)
0.000000000000000e+000	4.466220e+000	2.272440e-003
1.963497499984442e-003	4.466220e+000	2.272440e-003
1.998653749984438e-003	4.466220e+000	2.272440e-003
2.000000000000000e-003	4.466220e+000	2.272440e-003
Step Information: X=7  (Run: 7/1000)
0.000000000000000e+000	5.179248e+000	1.923214e-003
1.963497499984442e-003	5.179248e+000	1.923214e-003
1.998653749984438e-003	5.179248e+000	1.923214e-003
2.000000000000000e-003	5.179248e+000	1.923214e-003
Step Information: X=8  (Run: 8/1000)
0.000000000000000e+000	4.649489e+000	2.170580e-003
1.963497499984442e-003	4.649489e+000	2.170580e-003
1.998653749984438e-003	4.649489e+000	2.170580e-003
2.000000000000000e-003	4.649489e+000	2.170580e-003
Step Information: X=9  (Run: 9/1000)
0.000000000000000e+000	4.457588e+000	2.254255e-003
1.963497499984442e-003	4.457588e+000	2.254255e-003
1.998653749984438e-003	4.457588e+000	2.254255e-003
2.000000000000000e-003	4.457588e+000	2.254255e-003
Step Information: X=10  (Run: 10/1000)
0.000000000000000e+000	4.858079e+000	2.085881e-003
1.963497499984442e-003	4.858079e+000	2.085881e-003
1.998653749984438e-003	4.858079e+000	2.085881e-003
2.000000000000000e-003	4.858079e+000	2.085881e-003
Step Information: X=11  (Run: 11/1000)
0.000000000000000e+000	4.446259e+000	2.264206e-003
1.963497499984442e-003	4.446259e+000	2.264206e-003
1.998653749984438e-003	4.446259e+000	2.264206e-003
2.000000000000000e-003	4.446259e+000	2.264206e-003
Step Information: X=12  (Run: 12/1000)
0.000000000000000e+000	5.330053e+000	1.838929e-003
1.963497499984442e-003	5.330053e+000	1.838929e-003
1.998653749984438e-003	5.330053e+000	1.838929e-003
2.000000000000000e-003	5.330053e+000	1.838929e-003
Step Information: X=13  (Run: 13/1000)
0.000000000000000e+000	5.320272e+000	1.844443e-003
1.963497499984442e-003	5.320272e+000	1.844443e-003
1.998653749984438e-003	5.320272e+000	1.844443e-003
2.000000000000000e-003	5.320272e+000	1.844443e-003
Step Information: X=14  (Run: 14/1000)
0.000000000000000e+000	4.384304e+000	2.288679e-003
1.963497499984442e-003	4.384304e+000	2.288679e-003
1.998653749984438e-003	4.384304e+000	2.288679e-003
2.000000000000000e-003	4.384304e+000	2.288679e-003
Step Information: X=15  (Run: 15/1000)
0.000000000000000e+000	4.369834e+000	2.299556e-003
1.963497499984442e-003	4.369834e+000	2.299556e-003
1.998653749984438e-003	4.369834e+000	2.299556e-003
2.000000000000000e-003	4.369834e+000	2.299556e-003
Step Information: X=16  (Run: 16/1000)
0.000000000000000e+000	4.927275e+000	2.037648e-003
1.963497499984442e-003	4.927275e+000	2.037648e-003
1.998653749984438e-003	4.927275e+000	2.037648e-003
2.000000000000000e-003	4.927275e+000	2.037648e-003
Step Information: X=17  (Run: 17/1000)
0.000000000000000e+000	4.422640e+000	2.284155e-003
1.963497499984442e-003	4.422640e+000	2.284155e-003
1.998653749984438e-003	4.422640e+000	2.284155e-003
2.000000000000000e-003	4.422640e+000	2.284155e-003
Step Information: X=18  (Run: 18/1000)
0.000000000000000e+000	4.369207e+000	2.321835e-003
1.963497499984442e-003	4.369207e+000	2.321835e-003
1.998653749984438e-003	4.369207e+000	2.321835e-003
2.000000000000000e-003	4.369207e+000	2.321835e-003
Step Information: X=19  (Run: 19/1000)
0.000000000000000e+000	4.854790e+000	2.071896e-003
1.963497499984442e-003	4.854790e+000	2.071896e-003
1.998653749984438e-003	4.854790e+000	2.071896e-003
2.000000000000000e-003	4.854790e+000	2.071896e-003
Step Information: X=20  (Run: 20/1000)
0.000000000000000e+000	4.564600e+000	2.210745e-003
1.963497499984442e-003	4.564600e+000	2.210745e-003
1.998653749984438e-003	4.564600e+000	2.210745e-003
2.000000000000000e-003	4.564600e+000	2.210745e-003
Step Information: X=21  (Run: 21/1000)
0.000000000000000e+000	4.585882e+000	2.222729e-003
1.963497499984442e-003	4.585882e+000	2.222729e-003
1.998653749984438e-003	4.585882e+000	2.222729e-003
2.000000000000000e-003	4.585882e+000	2.222729e-003
Step Information: X=22  (Run: 22/1000)
0.000000000000000e+000	4.522297e+000	2.247705e-003
1.963497499984442e-003	4.522297e+000	2.247705e-003
1.998653749984438e-003	4.522297e+000	2.247705e-003
2.000000000000000e-003	4.522297e+000	2.247705e-003
Step Information: X=23  (Run: 23/1000)
0.000000000000000e+000	4.841865e+000	2.093587e-003
1.963497499984442e-003	4.841865e+000	2.093587e-003
1.998653749984438e-003	4.841865e+000	2.093587e-003
2.000000000000000e-003	4.841865e+000	2.093587e-003
Step Information: X=24  (Run: 24/1000)
0.000000000000000e+000	4.551278e+000	2.238784e-003
1.963497499984442e-003	4.551278e+000	2.238784e-003
1.998653749984438e-003	4.551278e+000	2.238784e-003
2.000000000000000e-003	4.551278e+000	2.238784e-003
Step Information: X=25  (Run: 25/1000)
0.000000000000000e+000	4.419919e+000	2.279463e-003
1.963497499984442e-003	4.419919e+000	2.279463e-003
1.998653749984438e-003	4.419919e+000	2.279463e-003
2.000000000000000e-003	4.419919e+000	2.279463e-003
Step Information: X=26  (Run: 26/1000)
0.000000000000000e+000	4.579129e+000	2.199182e-003
1.963497499984442e-003	4.579129e+000	2.199182e-003
1.998653749984438e-003	4.579129e+000	2.199182e-003
2.000000000000000e-003	4.579129e+000	2.199182e-003
Step Information: X=27  (Run: 27/1000)
0.000000000000000e+000	4.475174e+000	2.247370e-003
1.963497499984442e-003	4.475174e+000	2.247370e-003
1.998653749984438e-003	4.475174e+000	2.247370e-003
2.000000000000000e-003	4.475174e+000	2.247370e-003
Step Information: X=28  (Run: 28/1000)
0.000000000000000e+000	4.660511e+000	2.187036e-003
1.963497499984442e-003	4.660511e+000	2.187036e-003
1.998653749984438e-003	4.660511e+000	2.187036e-003
2.000000000000000e-003	4.660511e+000	2.187036e-003
Step Information: X=29  (Run: 29/1000)
0.000000000000000e+000	4.460443e+000	2.271063e-003
1.963497499984442e-003	4.460443e+000	2.271063e-003
1.998653749984438e-003	4.460443e+000	2.271063e-003
2.000000000000000e-003	4.460443e+000	2.271063e-003
Step Information: X=30  (Run: 30/1000)
0.000000000000000e+000	4.601367e+000	2.209396e-003
1.963497499984442e-003	4.601367e+000	2.209396e-003
1.998653749984438e-003	4.601367e+000	2.209396e-003
2.000000000000000e-003	4.601367e+000	2.209396e-003
Step Information: X=31  (Run: 31/1000)
0.000000000000000e+000	4.516372e+000	2.255528e-003
1.963497499984442e-003	4.516372e+000	2.255528e-003
1.998653749984438e-003	4.516372e+000	2.255528e-003
2.000000000000000e-003	4.516372e+000	2.255528e-003
Step Information: X=32  (Run: 32/1000)
0.000000000000000e+000	5.019703e+000	1.974739e-003
1.963497499984442e-003	5.019703e+000	1.974739e-003
1.998653749984438e-003	5.019703e+000	1.974739e-003
2.000000000000000e-003	5.019703e+000	1.974739e-003
Step Information: X=33  (Run: 33/1000)
0.000000000000000e+000	4.350549e+000	2.323270e-003
1.963497499984442e-003	4.350549e+000	2.323270e-003
1.998653749984438e-003	4.350549e+000	2.323270e-003
2.000000000000000e-003	4.350549e+000	2.323270e-003
Step Information: X=34  (Run: 34/1000)
0.000000000000000e+000	4.484232e+000	2.271611e-003
1.963497499984442e-003	4.484232e+000	2.271611e-003
1.998653749984438e-003	4.484232e+000	2.271611e-003
2.000000000000000e-003	4.484232e+000	2.271611e-003
Step Information: X=35  (Run: 35/1000)
0.000000000000000e+000	4.979596e+000	2.017705e-003
1.963497499984442e-003	4.979596e+000	2.017705e-003
1.998653749984438e-003	4.979596e+000	2.017705e-003
2.000000000000000e-003	4.979596e+000	2.017705e-003
Step Information: X=36  (Run: 36/1000)
0.000000000000000e+000	4.396734e+000	2.290953e-003
1.963497499984442e-003	4.396734e+000	2.290953e-003
1.998653749984438e-003	4.396734e+000	2.290953e-003
2.000000000000000e-003	4.396734e+000	2.290953e-003
Step Information: X=37  (Run: 37/1000)
0.000000000000000e+000	4.375628e+000	2.323678e-003
1.963497499984442e-003	4.375628e+000	2.323678e-003
1.998653749984438e-003	4.375628e+000	2.323678e-003
2.000000000000000e-003	4.375628e+000	2.323678e-003
Step Information: X=38  (Run: 38/1000)
0.000000000000000e+000	5.356800e+000	1.808843e-003
1.963497499984442e-003	5.356800e+000	1.808843e-003
1.998653749984438e-003	5.356800e+000	1.808843e-003
2.000000000000000e-003	5.356800e+000	1.808843e-003
Step Information: X=39  (Run: 39/1000)
0.000000000000000e+000	4.495254e+000	2.269907e-003
1.963497499984442e-003	4.495254e+000	2.269907e-003
1.998653749984438e-003	4.495254e+000	2.269907e-003
2.000000000000000e-003	4.495254e+000	2.269907e-003
Step Information: X=40  (Run: 40/1000)
0.000000000000000e+000	4.754190e+000	2.141152e-003
1.963497499984442e-003	4.754190e+000	2.141152e-003
1.998653749984438e-003	4.754190e+000	2.141152e-003
2.000000000000000e-003	4.754190e+000	2.141152e-003
Step Information: X=41  (Run: 41/1000)
0.000000000000000e+000	4.404381e+000	2.300723e-003
1.963497499984442e-003	4.404381e+000	2.300723e-003
1.998653749984438e-003	4.404381e+000	2.300723e-003
2.000000000000000e-003	4.404381e+000	2.300723e-003
Step Information: X=42  (Run: 42/1000)
0.000000000000000e+000	4.321829e+000	2.355091e-003
1.963497499984442e-003	4.321829e+000	2.355091e-003
1.998653749984438e-003	4.321829e+000	2.355091e-003
2.000000000000000e-003	4.321829e+000	2.355091e-003
Step Information: X=43  (Run: 43/1000)
0.000000000000000e+000	4.622922e+000	2.202195e-003
1.963497499984442e-003	4.622922e+000	2.202195e-003
1.998653749984438e-003	4.622922e+000	2.202195e-003
2.000000000000000e-003	4.622922e+000	2.202195e-003
Step Information: X=44  (Run: 44/1000)
0.000000000000000e+000	4.398347e+000	2.278135e-003
1.963497499984442e-003	4.398347e+000	2.278135e-003
1.998653749984438e-003	4.398347e+000	2.278135e-003
2.000000000000000e-003	4.398347e+000	2.278135e-003
Step Information: X=45  (Run: 45/1000)
0.000000000000000e+000	4.582477e+000	2.189863e-003
1.963497499984442e-003	4.582477e+000	2.189863e-003
1.998653749984438e-003	4.582477e+000	2.189863e-003
2.000000000000000e-003	4.582477e+000	2.189863e-003
Step Information: X=46  (Run: 46/1000)
0.000000000000000e+000	4.467426e+000	2.254157e-003
1.963497499984442e-003	4.467426e+000	2.254157e-003
1.998653749984438e-003	4.467426e+000	2.254157e-003
2.000000000000000e-003	4.467426e+000	2.254157e-003
Step Information: X=47  (Run: 47/1000)
0.000000000000000e+000	4.354000e+000	2.325250e-003
1.963497499984442e-003	4.354000e+000	2.325250e-003
1.998653749984438e-003	4.354000e+000	2.325250e-003
2.000000000000000e-003	4.354000e+000	2.325250e-003
Step Information: X=48  (Run: 48/1000)
0.000000000000000e+000	4.557616e+000	2.206681e-003
1.963497499984442e-003	4.557616e+000	2.206681e-003
1.998653749984438e-003	4.557616e+000	2.206681e-003
2.000000000000000e-003	4.557616e+000	2.206681e-003
Step Information: X=49  (Run: 49/1000)
0.000000000000000e+000	4.807681e+000	2.109480e-003
1.963497499984442e-003	4.807681e+000	2.109480e-003
1.998653749984438e-003	4.807681e+000	2.109480e-003
2.000000000000000e-003	4.807681e+000	2.109480e-003
Step Information: X=50  (Run: 50/1000)
0.000000000000000e+000	4.635604e+000	2.195859e-003
1.963497499984442e-003	4.635604e+000	2.195859e-003
1.998653749984438e-003	4.635604e+000	2.195859e-003
2.000000000000000e-003	4.635604e+000	2.195859e-003
Step Information: X=51  (Run: 51/1000)
0.000000000000000e+000	4.367732e+000	2.316391e-003
1.963497499984442e-003	4.367732e+000	2.316391e-003
1.998653749984438e-003	4.367732e+000	2.316391e-003
2.000000000000000e-003	4.367732e+000	2.316391e-003
Step Information: X=52  (Run: 52/1000)
0.000000000000000e+000	4.427598e+000	2.277495e-003
1.963497499984442e-003	4.427598e+000	2.277495e-003
1.998653749984438e-003	4.427598e+000	2.277495e-003
2.000000000000000e-003	4.427598e+000	2.277495e-003
Step Information: X=53  (Run: 53/1000)
0.000000000000000e+000	4.332100e+000	2.314896e-003
1.963497499984442e-003	4.332100e+000	2.314896e-003
1.998653749984438e-003	4.332100e+000	2.314896e-003
2.000000000000000e-003	4.332100e+000	2.314896e-003
Step Information: X=54  (Run: 54/1000)
0.000000000000000e+000	4.741063e+000	2.109365e-003
1.963497499984442e-003	4.741063e+000	2.109365e-003
1.998653749984438e-003	4.741063e+000	2.109365e-003
2.000000000000000e-003	4.741063e+000	2.109365e-003
Step Information: X=55  (Run: 55/1000)
0.000000000000000e+000	4.916178e+000	2.058023e-003
1.963497499984442e-003	4.916178e+000	2.058023e-003
1.998653749984438e-003	4.916178e+000	2.058023e-003
2.000000000000000e-003	4.916178e+000	2.058023e-003
Step Information: X=56  (Run: 56/1000)
0.000000000000000e+000	4.395364e+000	2.310316e-003
1.963497499984442e-003	4.395364e+000	2.310316e-003
1.998653749984438e-003	4.395364e+000	2.310316e-003
2.000000000000000e-003	4.395364e+000	2.310316e-003
Step Information: X=57  (Run: 57/1000)
0.000000000000000e+000	4.513818e+000	2.241070e-003
1.963497499984442e-003	4.513818e+000	2.241070e-003
1.998653749984438e-003	4.513818e+000	2.241070e-003
2.000000000000000e-003	4.513818e+000	2.241070e-003
Step Information: X=58  (Run: 58/1000)
0.000000000000000e+000	4.644408e+000	2.177744e-003
1.963497499984442e-003	4.644408e+000	2.177744e-003
1.998653749984438e-003	4.644408e+000	2.177744e-003
2.000000000000000e-003	4.644408e+000	2.177744e-003
Step Information: X=59  (Run: 59/1000)
0.000000000000000e+000	4.662295e+000	2.154774e-003
1.963497499984442e-003	4.662295e+000	2.154774e-003
1.998653749984438e-003	4.662295e+000	2.154774e-003
2.000000000000000e-003	4.662295e+000	2.154774e-003
Step Information: X=60  (Run: 60/1000)
0.000000000000000e+000	4.486251e+000	2.237010e-003
1.963497499984442e-003	4.486251e+000	2.237010e-003
1.998653749984438e-003	4.486251e+000	2.237010e-003
2.000000000000000e-003	4.486251e+000	2.237010e-003
Step Information: X=61  (Run: 61/1000)
0.000000000000000e+000	4.568631e+000	2.210837e-003
1.963497499984442e-003	4.568631e+000	2.210837e-003
1.998653749984438e-003	4.568631e+000	2.210837e-003
2.000000000000000e-003	4.568631e+000	2.210837e-003
Step Information: X=62  (Run: 62/1000)
0.000000000000000e+000	4.613123e+000	2.201269e-003
1.963497499984442e-003	4.613123e+000	2.201269e-003
1.998653749984438e-003	4.613123e+000	2.201269e-003
2.000000000000000e-003	4.613123e+000	2.201269e-003
Step Information: X=63  (Run: 63/1000)
0.000000000000000e+000	4.427581e+000	2.267166e-003
1.963497499984442e-003	4.427581e+000	2.267166e-003
1.998653749984438e-003	4.427581e+000	2.267166e-003
2.000000000000000e-003	4.427581e+000	2.267166e-003
Step Information: X=64  (Run: 64/1000)
0.000000000000000e+000	4.560797e+000	2.224980e-003
1.963497499984442e-003	4.560797e+000	2.224980e-003
1.998653749984438e-003	4.560797e+000	2.224980e-003
2.000000000000000e-003	4.560797e+000	2.224980e-003
Step Information: X=65  (Run: 65/1000)
0.000000000000000e+000	5.402896e+000	1.791809e-003
1.963497499984442e-003	5.402896e+000	1.791809e-003
1.998653749984438e-003	5.402896e+000	1.791809e-003
2.000000000000000e-003	5.402896e+000	1.791809e-003
Step Information: X=66  (Run: 66/1000)
0.000000000000000e+000	4.455594e+000	2.262796e-003
1.963497499984442e-003	4.455594e+000	2.262796e-003
1.998653749984438e-003	4.455594e+000	2.262796e-003
2.000000000000000e-003	4.455594e+000	2.262796e-003
Step Information: X=67  (Run: 67/1000)
0.000000000000000e+000	4.495896e+000	2.240966e-003
1.963497499984442e-003	4.495896e+000	2.240966e-003
1.998653749984438e-003	4.495896e+000	2.240966e-003
2.000000000000000e-003	4.495896e+000	2.240966e-003
Step Information: X=68  (Run: 68/1000)
0.000000000000000e+000	4.623377e+000	2.194584e-003
1.963497499984442e-003	4.623377e+000	2.194584e-003
1.998653749984438e-003	4.623377e+000	2.194584e-003
2.000000000000000e-003	4.623377e+000	2.194584e-003
Step Information: X=69  (Run: 69/1000)
0.000000000000000e+000	5.289749e+000	1.868895e-003
1.963497499984442e-003	5.289749e+000	1.868895e-003
1.998653749984438e-003	5.289749e+000	1.868895e-003
2.000000000000000e-003	5.289749e+000	1.868895e-003
Step Information: X=70  (Run: 70/1000)
0.000000000000000e+000	4.262974e+000	2.376601e-003
1.963497499984442e-003	4.262974e+000	2.376601e-003
1.998653749984438e-003	4.262974e+000	2.376601e-003
2.000000000000000e-003	4.262974e+000	2.376601e-003
Step Information: X=71  (Run: 71/1000)
0.000000000000000e+000	5.344818e+000	1.814371e-003
1.963497499984442e-003	5.344818e+000	1.814371e-003
1.998653749984438e-003	5.344818e+000	1.814371e-003
2.000000000000000e-003	5.344818e+000	1.814371e-003
Step Information: X=72  (Run: 72/1000)
0.000000000000000e+000	5.123308e+000	1.952936e-003
1.963497499984442e-003	5.123308e+000	1.952936e-003
1.998653749984438e-003	5.123308e+000	1.952936e-003
2.000000000000000e-003	5.123308e+000	1.952936e-003
Step Information: X=73  (Run: 73/1000)
0.000000000000000e+000	4.651588e+000	2.188699e-003
1.963497499984442e-003	4.651588e+000	2.188699e-003
1.998653749984438e-003	4.651588e+000	2.188699e-003
2.000000000000000e-003	4.651588e+000	2.188699e-003
Step Information: X=74  (Run: 74/1000)
0.000000000000000e+000	4.436913e+000	2.274220e-003
1.963497499984442e-003	4.436913e+000	2.274220e-003
1.998653749984438e-003	4.436913e+000	2.274220e-003
2.000000000000000e-003	4.436913e+000	2.274220e-003
Step Information: X=75  (Run: 75/1000)
0.000000000000000e+000	4.656266e+000	2.158992e-003
1.963497499984442e-003	4.656266e+000	2.158992e-003
1.998653749984438e-003	4.656266e+000	2.158992e-003
2.000000000000000e-003	4.656266e+000	2.158992e-003
Step Information: X=76  (Run: 76/1000)
0.000000000000000e+000	4.445546e+000	2.288500e-003
1.963497499984442e-003	4.445546e+000	2.288500e-003
1.998653749984438e-003	4.445546e+000	2.288500e-003
2.000000000000000e-003	4.445546e+000	2.288500e-003
Step Information: X=77  (Run: 77/1000)
0.000000000000000e+000	4.589713e+000	2.201913e-003
1.963497499984442e-003	4.589713e+000	2.201913e-003
1.998653749984438e-003	4.589713e+000	2.201913e-003
2.000000000000000e-003	4.589713e+000	2.201913e-003
Step Information: X=78  (Run: 78/1000)
0.000000000000000e+000	4.484567e+000	2.275436e-003
1.963497499984442e-003	4.484567e+000	2.275436e-003
1.998653749984438e-003	4.484567e+000	2.275436e-003
2.000000000000000e-003	4.484567e+000	2.275436e-003
Step Information: X=79  (Run: 79/1000)
0.000000000000000e+000	4.585975e+000	2.189704e-003
1.963497499984442e-003	4.585975e+000	2.189704e-003
1.998653749984438e-003	4.585975e+000	2.189704e-003
2.000000000000000e-003	4.585975e+000	2.189704e-003
Step Information: X=80  (Run: 80/1000)
0.000000000000000e+000	4.582807e+000	2.192954e-003
1.963497499984442e-003	4.582807e+000	2.192954e-003
1.998653749984438e-003	4.582807e+000	2.192954e-003
2.000000000000000e-003	4.582807e+000	2.192954e-003
Step Information: X=81  (Run: 81/1000)
0.000000000000000e+000	4.578784e+000	2.208735e-003
1.963497499984442e-003	4.578784e+000	2.208735e-003
1.998653749984438e-003	4.578784e+000	2.208735e-003
2.000000000000000e-003	4.578784e+000	2.208735e-003
Step Information: X=82  (Run: 82/1000)
0.000000000000000e+000	4.754504e+000	2.125860e-003
1.963497499984442e-003	4.754504e+000	2.125860e-003
1.998653749984438e-003	4.754504e+000	2.125860e-003
2.000000000000000e-003	4.754504e+000	2.125860e-003
Step Information: X=83  (Run: 83/1000)
